
T1FB0 000:465 SEGGER J-Link V4.35b (beta) Log File (0001ms, 0465ms total)
T1FB0 000:465 DLL Compiled: Sep  2 2011 18:34:46 (0001ms, 0465ms total)
T1FB0 000:465 Logging started @ 2022-07-06 13:42 (0001ms, 0465ms total)
T1FB0 000:466 JLINK_SetWarnOutHandler(...) (0000ms, 0466ms total)
T1FB0 000:466 JLINK_OpenEx(...)
Firmware: J-Link V10 compiled Aug 12 2019 10:37:43
Hardware: V10.00
S/N: 600001093
Feature(s): RDI, FlashBP, FlashDL, JFlash, GDB  returns O.K. (0344ms, 0466ms total)
T1FB0 000:810 JLINK_SetErrorOutHandler(...) (0000ms, 0810ms total)
T1FB0 000:810 JLINK_ExecCommand("Device = ARMCM3", ...)  returns 0x00 (0000ms, 0810ms total)
T1FB0 000:811 JLINK_ExecCommand("ProjectFile = "C:\FW\SW47702_BOE_MNT_23.8_FHD_SW97500_Dell_AEGIS_USB_Finger_SVN_backup\KeilProjects\APPLICATION\JLinkSettings.ini"", ...)  returns 0x00 (0001ms, 0810ms total)
T1FB0 000:818 JLINK_ExecCommand("DisableConnectionTimeout", ...)  returns 0x00 (0000ms, 0811ms total)
T1FB0 000:818 JLINK_TIF_Select(JLINKARM_TIF_SWD)  returns 0x00 (0001ms, 0811ms total)
T1FB0 000:819 JLINK_SetSpeed(5000) (0000ms, 0812ms total)
T1FB0 000:819 JLINK_GetHardwareVersion()  returns 0x186A0 (0000ms, 0812ms total)
T1FB0 000:819 JLINK_GetDLLVersion()  returns 43502 (0000ms, 0812ms total)
T1FB0 000:819 JLINK_GetFirmwareString(...) (0000ms, 0812ms total)
T1FB0 000:850 JLINK_GetDLLVersion()  returns 43502 (0001ms, 0812ms total)
T1FB0 000:851 JLINK_GetCompileDateTime() (0000ms, 0813ms total)
T1FB0 000:855 JLINK_GetFirmwareString(...) (0000ms, 0813ms total)
T1FB0 000:858 JLINK_GetHardwareVersion()  returns 0x186A0 (0001ms, 0813ms total)
T1FB0 000:865 JLINK_GetId() >0x108 TIF>Found SWD-DP with ID 0x2BA01477 >0x33 TIF> >0x33 TIF> >0x35 TIF> >0x33 TIF> >0x35 TIF> >0x33 TIF> >0x33 TIF> >0x35 TIF> >0x33 TIF> >0x33 TIF> >0x35 TIF> >0x33 TIF> >0x33 TIF> >0x35 TIF> >0x33 TIF> >0x33 TIF> >0x35 TIF> >0x35 TIF> >0x35 TIF> >0x35 TIF> >0x35 TIF> >0x33 TIF> >0x33 TIF> >0x35 TIF> >0x33 TIF> >0x33 TIF> >0x33 TIF> >0x35 TIF> >0x33 TIF> >0x33 TIF> >0x35 TIF> >0x33 TIF> >0x33 TIF>  FPUnit: 6 code (BP) slots and 2 literal slots >0x35 TIF> >0x33 TIF>
 >0x33 TIF> >0x35 TIF> >0x33 TIF> >0x33 TIF> >0x35 TIF> >0x33 TIF> >0x33 TIF>Found Cortex-M3 r2p1, Little endian. >0x33 TIF>  returns 0x2BA01477 (0017ms, 0814ms total)
T1FB0 000:882 JLINK_GetDebugInfo(0x100) -- Value=0xE00FF003  returns 0x00 (0000ms, 0831ms total)
T1FB0 000:883 JLINK_ReadMem (0xE00FFFF0, 0x0010 Bytes, ...) -- CPU is running -- CPU_ReadMem(16 bytes @ 0xE00FFFF0) -- Data:  0D 00 00 00 10 00 00 00 05 00 00 00 B1 00 00 00  returns 0x00 (0000ms, 0831ms total)
T1FB0 000:883 JLINK_ReadMem (0xE00FFFD0, 0x0020 Bytes, ...) -- CPU is running -- CPU_ReadMem(32 bytes @ 0xE00FFFD0) -- Data:  04 00 00 00 00 00 00 00 00 00 00 00 00 00 00 00 ...  returns 0x00 (0001ms, 0831ms total)
T1FB0 000:884 JLINK_ReadMem (0xE00FF000, 0x0018 Bytes, ...) -- CPU is running -- CPU_ReadMem(24 bytes @ 0xE00FF000) -- Data:  03 F0 F0 FF 03 20 F0 FF 03 30 F0 FF 02 10 F0 FF ...  returns 0x00 (0000ms, 0832ms total)
T1FB0 000:884 JLINK_ReadMemU32(0xE000ED00, 0x0001 Items, ...) -- CPU is running -- CPU_ReadMem(4 bytes @ 0xE000ED00) -- Data:  31 C2 2F 41  returns 0x01 (0000ms, 0832ms total)
T1FB0 000:884 JLINK_SetResetType(JLINKARM_RESET_TYPE_NORMAL)  returns JLINKARM_RESET_TYPE_NORMAL (0000ms, 0832ms total)
T1FB0 000:884 JLINK_Reset() >0x108 TIF>Found SWD-DP with ID 0x2BA01477 >0x33 TIF> >0x33 TIF> >0x35 TIF> >0x33 TIF> >0x35 TIF> >0x33 TIF> >0x33 TIF> >0x35 TIF> >0x33 TIF> >0x33 TIF> >0x35 TIF> >0x33 TIF> >0x33 TIF> >0x35 TIF> >0x33 TIF> >0x33 TIF> >0x35 TIF> >0x35 TIF> >0x35 TIF> >0x35 TIF> >0x35 TIF> >0x33 TIF> >0x33 TIF> >0x35 TIF> >0x33 TIF> >0x33 TIF> >0x33 TIF> >0x35 TIF> >0x33 TIF> >0x33 TIF> >0x35 TIF> >0x33 TIF> >0x33 TIF>  FPUnit: 6 code (BP) slots and 2 literal slots >0x35 TIF> >0x33 TIF>
 >0x33 TIF> >0x35 TIF> >0x33 TIF> >0x33 TIF> >0x35 TIF> >0x33 TIF> >0x33 TIF>Found Cortex-M3 r2p1, Little endian. -- CPU is running -- CPU_WriteMem(4 bytes @ 0xE000EDF0) -- CPU is running -- CPU_WriteMem(4 bytes @ 0xE000EDFC) >0x35 TIF> -- CPU is running -- CPU_WriteMem(4 bytes @ 0xE000ED0C) -- CPU is running -- CPU_ReadMem(4 bytes @ 0xE000EDF0) -- CPU is running -- CPU_ReadMem(4 bytes @ 0xE000EDF0) -- CPU is running -- CPU_WriteMem(4 bytes @ 0xE000EDF0) -- CPU is running
 -- CPU_WriteMem(4 bytes @ 0xE000EDFC) -- CPU is running -- CPU_ReadMem(4 bytes @ 0xE000EDF0) (0039ms, 0832ms total)
T1FB0 000:923 JLINK_Halt()  returns 0x00 (0000ms, 0871ms total)
T1FB0 000:923 JLINK_IsHalted()  returns TRUE (0000ms, 0871ms total)
T1FB0 000:923 JLINK_ReadMemU32(0xE000EDF0, 0x0001 Items, ...) -- CPU_ReadMem(4 bytes @ 0xE000EDF0) -- Data:  03 00 03 00  returns 0x01 (0001ms, 0871ms total)
T1FB0 000:924 JLINK_WriteU32(0xE000EDF0, 0xA05F0003) -- CPU_WriteMem(4 bytes @ 0xE000EDF0)  returns 0x00 (0000ms, 0872ms total)
T1FB0 000:924 JLINK_WriteU32(0xE000EDFC, 0x01000000) -- CPU_WriteMem(4 bytes @ 0xE000EDFC)  returns 0x00 (0000ms, 0872ms total)
T1FB0 000:924 JLINK_ReadMemU32(0xE0002000, 0x0001 Items, ...) -- CPU_ReadMem(4 bytes @ 0xE0002000) -- Data:  60 02 00 00  returns 0x01 (0001ms, 0872ms total)
T1FB0 000:925 JLINK_ReadMemU32(0xE0001000, 0x0001 Items, ...) -- CPU_ReadMem(4 bytes @ 0xE0001000) -- Data:  00 00 00 4F  returns 0x01 (0000ms, 0873ms total)
T1FB0 000:925 JLINK_WriteU32(0xE0001028, 0x00000000) -- CPU_WriteMem(4 bytes @ 0xE0001028)  returns 0x00 (0001ms, 0873ms total)
T1FB0 000:926 JLINK_WriteU32(0xE0001038, 0x00000000) -- CPU_WriteMem(4 bytes @ 0xE0001038)  returns 0x00 (0000ms, 0874ms total)
T1FB0 000:926 JLINK_WriteU32(0xE0001048, 0x00000000) -- CPU_WriteMem(4 bytes @ 0xE0001048)  returns 0x00 (0001ms, 0874ms total)
T1FB0 000:927 JLINK_WriteU32(0xE0001058, 0x00000000) -- CPU_WriteMem(4 bytes @ 0xE0001058)  returns 0x00 (0000ms, 0875ms total)
T1FB0 000:933 JLINK_GetHWStatus(...)  returns 0x00 (0000ms, 0875ms total)
T1FB0 000:946 JLINK_GetNumBPUnits(Type = 0xFFFFFF00)  returns 0x06 (0000ms, 0875ms total)
T1FB0 000:946 JLINK_GetNumBPUnits(Type = 0xF0)  returns 0x2000 (0000ms, 0875ms total)
T1FB0 000:946 JLINK_GetNumWPUnits()  returns 0x04 (0000ms, 0875ms total)
T1FB0 000:954 JLINK_GetSpeed()  returns 0x1388 (0000ms, 0875ms total)
T1FB0 000:961 JLINK_ReadMemU32(0xE000E004, 0x0001 Items, ...) -- CPU_ReadMem(4 bytes @ 0xE000E004) -- Data:  00 00 00 00  returns 0x01 (0001ms, 0875ms total)
T1FB0 000:962 JLINK_ReadMemU32(0xE000E004, 0x0001 Items, ...) -- CPU_ReadMem(4 bytes @ 0xE000E004) -- Data:  00 00 00 00  returns 0x01 (0000ms, 0876ms total)
T1FB0 000:962 JLINK_WriteMem(0xE0001000, 0x001C Bytes, ...) -- Data:  01 00 00 00 00 00 00 00 00 00 00 00 00 00 00 00 ... -- CPU_WriteMem(28 bytes @ 0xE0001000)  returns 0x1C (0000ms, 0876ms total)
T1FB0 000:962 JLINK_ReadMem (0xE0001000, 0x001C Bytes, ...) -- CPU_ReadMem(28 bytes @ 0xE0001000) -- Data:  01 00 00 4F 00 00 00 00 00 00 00 00 00 00 00 00 ...  returns 0x00 (0000ms, 0876ms total)
T1FB0 000:963 JLINK_Halt()  returns 0x00 (0000ms, 0877ms total)
T1FB0 000:963 JLINK_IsHalted()  returns TRUE (0000ms, 0877ms total)
T1FB0 000:969 JLINK_WriteMem(0x20000000, 0x0628 Bytes, ...) -- Data:  00 BE 0A E0 0D 78 2D 06 68 40 08 24 40 00 00 D3 ... -- CPU_WriteMem(1576 bytes @ 0x20000000)  returns 0x628 (0005ms, 0877ms total)
T1FB0 000:974 JLINK_WriteReg(R0, 0x00000000)  returns 0x00 (0000ms, 0882ms total)
T1FB0 000:974 JLINK_WriteReg(R1, 0x00B71B00)  returns 0x00 (0000ms, 0882ms total)
T1FB0 000:974 JLINK_WriteReg(R2, 0x00000001)  returns 0x00 (0000ms, 0882ms total)
T1FB0 000:974 JLINK_WriteReg(R3, 0x00000000)  returns 0x00 (0000ms, 0882ms total)
T1FB0 000:974 JLINK_WriteReg(R4, 0x00000000)  returns 0x00 (0000ms, 0882ms total)
T1FB0 000:974 JLINK_WriteReg(R5, 0x00000000)  returns 0x00 (0000ms, 0882ms total)
T1FB0 000:974 JLINK_WriteReg(R6, 0x00000000)  returns 0x00 (0000ms, 0882ms total)
T1FB0 000:974 JLINK_WriteReg(R7, 0x00000000)  returns 0x00 (0000ms, 0882ms total)
T1FB0 000:974 JLINK_WriteReg(R8, 0x00000000)  returns 0x00 (0000ms, 0882ms total)
T1FB0 000:974 JLINK_WriteReg(R9, 0x20000620)  returns 0x00 (0000ms, 0882ms total)
T1FB0 000:974 JLINK_WriteReg(R10, 0x00000000)  returns 0x00 (0000ms, 0882ms total)
T1FB0 000:974 JLINK_WriteReg(R11, 0x00000000)  returns 0x00 (0000ms, 0882ms total)
T1FB0 000:974 JLINK_WriteReg(R12, 0x00000000)  returns 0x00 (0001ms, 0882ms total)
T1FB0 000:975 JLINK_WriteReg(R13, 0x20001000)  returns 0x00 (0000ms, 0883ms total)
T1FB0 000:975 JLINK_WriteReg(R14, 0x20000001)  returns 0x00 (0000ms, 0883ms total)
T1FB0 000:975 JLINK_WriteReg(R15, 0x20000038)  returns 0x00 (0000ms, 0883ms total)
T1FB0 000:975 JLINK_WriteReg(XPSR, 0x01000000)  returns 0x00 (0000ms, 0883ms total)
T1FB0 000:975 JLINK_WriteReg(MSP, 0x20001000)  returns 0x00 (0000ms, 0883ms total)
T1FB0 000:975 JLINK_WriteReg(PSP, 0x20001000)  returns 0x00 (0000ms, 0883ms total)
T1FB0 000:975 JLINK_WriteReg(BASEPRI, 0x00000000)  returns 0x00 (0000ms, 0883ms total)
T1FB0 000:975 JLINK_WriteReg(CONTROL, 0x00000000)  returns 0x00 (0000ms, 0883ms total)
T1FB0 000:975 JLINK_WriteReg(FAULTMASK, 0x00000000)  returns 0x00 (0000ms, 0883ms total)
T1FB0 000:975 JLINK_WriteReg(BASEPRI_MAX, 0x00000000)  returns 0x00 (0000ms, 0883ms total)
T1FB0 000:975 JLINK_SetBPEx(Addr = 0x20000000, Type = 0xFFFFFFF2) -- CPU_ReadMem(4 bytes @ 0x20000000) -- CPU_WriteMem(4 bytes @ 0x20000000) -- CPU_ReadMem(4 bytes @ 0x20000000) -- CPU_WriteMem(4 bytes @ 0x20000000) -- CPU_ReadMem(2 bytes @ 0x20000000)  returns 0x00000001 (0002ms, 0883ms total)
T1FB0 000:977 JLINK_Go() -- CPU_WriteMem(2 bytes @ 0x20000000) -- CPU_WriteMem(4 bytes @ 0xE0002008) -- CPU_WriteMem(4 bytes @ 0xE000200C) -- CPU_WriteMem(4 bytes @ 0xE0002010) -- CPU_WriteMem(4 bytes @ 0xE0002014) -- CPU_WriteMem(4 bytes @ 0xE0002018) -- CPU_WriteMem(4 bytes @ 0xE000201C) (0003ms, 0885ms total)
T1FB0 000:980 JLINK_IsHalted()  returns FALSE (0001ms, 0888ms total)
T1FB0 001:031 JLINK_IsHalted() -- CPU_ReadMem(2 bytes @ 0x20000000)  returns TRUE (0003ms, 0888ms total)
T1FB0 001:034 JLINK_ReadReg(R15)  returns 0x20000000 (0000ms, 0888ms total)
T1FB0 001:034 JLINK_ClrBPEx(BPHandle = 0x00000001)  returns 0x00 (0000ms, 0888ms total)
T1FB0 001:034 JLINK_ReadReg(R0)  returns 0x00000000 (0000ms, 0888ms total)
T1FB0 001:034 JLINK_WriteReg(R0, 0x00000000)  returns 0x00 (0000ms, 0888ms total)
T1FB0 001:035 JLINK_WriteReg(R1, 0x00B71B00)  returns 0x00 (0000ms, 0889ms total)
T1FB0 001:035 JLINK_WriteReg(R2, 0x00000001)  returns 0x00 (0000ms, 0889ms total)
T1FB0 001:035 JLINK_WriteReg(R3, 0x00000000)  returns 0x00 (0000ms, 0889ms total)
T1FB0 001:035 JLINK_WriteReg(R4, 0x00000000)  returns 0x00 (0000ms, 0889ms total)
T1FB0 001:035 JLINK_WriteReg(R5, 0x00000000)  returns 0x00 (0000ms, 0889ms total)
T1FB0 001:035 JLINK_WriteReg(R6, 0x00000000)  returns 0x00 (0000ms, 0889ms total)
T1FB0 001:035 JLINK_WriteReg(R7, 0x00000000)  returns 0x00 (0000ms, 0889ms total)
T1FB0 001:035 JLINK_WriteReg(R8, 0x00000000)  returns 0x00 (0000ms, 0889ms total)
T1FB0 001:035 JLINK_WriteReg(R9, 0x20000620)  returns 0x00 (0000ms, 0889ms total)
T1FB0 001:035 JLINK_WriteReg(R10, 0x00000000)  returns 0x00 (0000ms, 0889ms total)
T1FB0 001:035 JLINK_WriteReg(R11, 0x00000000)  returns 0x00 (0000ms, 0889ms total)
T1FB0 001:035 JLINK_WriteReg(R12, 0x00000000)  returns 0x00 (0000ms, 0889ms total)
T1FB0 001:035 JLINK_WriteReg(R13, 0x20001000)  returns 0x00 (0000ms, 0889ms total)
T1FB0 001:035 JLINK_WriteReg(R14, 0x20000001)  returns 0x00 (0000ms, 0889ms total)
T1FB0 001:035 JLINK_WriteReg(R15, 0x2000013C)  returns 0x00 (0000ms, 0889ms total)
T1FB0 001:035 JLINK_WriteReg(XPSR, 0x01000000)  returns 0x00 (0001ms, 0889ms total)
T1FB0 001:036 JLINK_WriteReg(MSP, 0x20001000)  returns 0x00 (0000ms, 0890ms total)
T1FB0 001:036 JLINK_WriteReg(PSP, 0x20001000)  returns 0x00 (0000ms, 0890ms total)
T1FB0 001:036 JLINK_WriteReg(BASEPRI, 0x00000000)  returns 0x00 (0000ms, 0890ms total)
T1FB0 001:036 JLINK_WriteReg(CONTROL, 0x00000000)  returns 0x00 (0000ms, 0890ms total)
T1FB0 001:036 JLINK_WriteReg(FAULTMASK, 0x00000000)  returns 0x00 (0000ms, 0890ms total)
T1FB0 001:036 JLINK_WriteReg(BASEPRI_MAX, 0x00000000)  returns 0x00 (0000ms, 0890ms total)
T1FB0 001:036 JLINK_SetBPEx(Addr = 0x20000000, Type = 0xFFFFFFF2)  returns 0x00000002 (0000ms, 0890ms total)
T1FB0 001:036 JLINK_Go() -- CPU_WriteMem(4 bytes @ 0xE0002008) -- CPU_WriteMem(4 bytes @ 0xE000200C) -- CPU_WriteMem(4 bytes @ 0xE0002010) -- CPU_WriteMem(4 bytes @ 0xE0002014) -- CPU_WriteMem(4 bytes @ 0xE0002018) -- CPU_WriteMem(4 bytes @ 0xE000201C) (0003ms, 0890ms total)
T1FB0 001:039 JLINK_IsHalted()  returns FALSE (0001ms, 0893ms total)
T1FB0 001:091 JLINK_IsHalted() -- CPU_ReadMem(2 bytes @ 0x20000000)  returns TRUE (0002ms, 0893ms total)
T1FB0 001:093 JLINK_ReadReg(R15)  returns 0x20000000 (0000ms, 0893ms total)
T1FB0 001:093 JLINK_ClrBPEx(BPHandle = 0x00000002)  returns 0x00 (0000ms, 0893ms total)
T1FB0 001:093 JLINK_ReadReg(R0)  returns 0x00000000 (0000ms, 0893ms total)
T1FB0 001:146 JLINK_WriteReg(R0, 0x00000001)  returns 0x00 (0000ms, 0893ms total)
T1FB0 001:147 JLINK_WriteReg(R1, 0x00B71B00)  returns 0x00 (0000ms, 0893ms total)
T1FB0 001:147 JLINK_WriteReg(R2, 0x00000001)  returns 0x00 (0000ms, 0893ms total)
T1FB0 001:147 JLINK_WriteReg(R3, 0x00000000)  returns 0x00 (0000ms, 0893ms total)
T1FB0 001:147 JLINK_WriteReg(R4, 0x00000000)  returns 0x00 (0000ms, 0893ms total)
T1FB0 001:147 JLINK_WriteReg(R5, 0x00000000)  returns 0x00 (0000ms, 0893ms total)
T1FB0 001:147 JLINK_WriteReg(R6, 0x00000000)  returns 0x00 (0000ms, 0893ms total)
T1FB0 001:147 JLINK_WriteReg(R7, 0x00000000)  returns 0x00 (0000ms, 0893ms total)
T1FB0 001:147 JLINK_WriteReg(R8, 0x00000000)  returns 0x00 (0000ms, 0893ms total)
T1FB0 001:147 JLINK_WriteReg(R9, 0x20000620)  returns 0x00 (0000ms, 0893ms total)
T1FB0 001:147 JLINK_WriteReg(R10, 0x00000000)  returns 0x00 (0000ms, 0893ms total)
T1FB0 001:147 JLINK_WriteReg(R11, 0x00000000)  returns 0x00 (0001ms, 0893ms total)
T1FB0 001:148 JLINK_WriteReg(R12, 0x00000000)  returns 0x00 (0000ms, 0894ms total)
T1FB0 001:148 JLINK_WriteReg(R13, 0x20001000)  returns 0x00 (0000ms, 0894ms total)
T1FB0 001:148 JLINK_WriteReg(R14, 0x20000001)  returns 0x00 (0000ms, 0894ms total)
T1FB0 001:148 JLINK_WriteReg(R15, 0x200000BA)  returns 0x00 (0000ms, 0894ms total)
T1FB0 001:148 JLINK_WriteReg(XPSR, 0x01000000)  returns 0x00 (0000ms, 0894ms total)
T1FB0 001:148 JLINK_WriteReg(MSP, 0x20001000)  returns 0x00 (0000ms, 0894ms total)
T1FB0 001:148 JLINK_WriteReg(PSP, 0x20001000)  returns 0x00 (0000ms, 0894ms total)
T1FB0 001:148 JLINK_WriteReg(BASEPRI, 0x00000000)  returns 0x00 (0000ms, 0894ms total)
T1FB0 001:148 JLINK_WriteReg(CONTROL, 0x00000000)  returns 0x00 (0000ms, 0894ms total)
T1FB0 001:148 JLINK_WriteReg(FAULTMASK, 0x00000000)  returns 0x00 (0000ms, 0894ms total)
T1FB0 001:148 JLINK_WriteReg(BASEPRI_MAX, 0x00000000)  returns 0x00 (0001ms, 0894ms total)
T1FB0 001:149 JLINK_SetBPEx(Addr = 0x20000000, Type = 0xFFFFFFF2)  returns 0x00000003 (0000ms, 0895ms total)
T1FB0 001:149 JLINK_Go() -- CPU_WriteMem(4 bytes @ 0xE0002008) -- CPU_WriteMem(4 bytes @ 0xE000200C) -- CPU_WriteMem(4 bytes @ 0xE0002010) -- CPU_WriteMem(4 bytes @ 0xE0002014) -- CPU_WriteMem(4 bytes @ 0xE0002018) -- CPU_WriteMem(4 bytes @ 0xE000201C) (0003ms, 0895ms total)
T1FB0 001:152 JLINK_IsHalted()  returns FALSE (0001ms, 0898ms total)
T1FB0 001:203 JLINK_IsHalted() -- CPU_ReadMem(2 bytes @ 0x20000000)  returns TRUE (0002ms, 0898ms total)
T1FB0 001:205 JLINK_ReadReg(R15)  returns 0x20000000 (0000ms, 0898ms total)
T1FB0 001:205 JLINK_ClrBPEx(BPHandle = 0x00000003)  returns 0x00 (0000ms, 0898ms total)
T1FB0 001:205 JLINK_ReadReg(R0)  returns 0x00000000 (0000ms, 0898ms total)
T1FB0 001:218 JLINK_WriteMem(0x20000000, 0x0628 Bytes, ...) -- Data:  00 BE 0A E0 0D 78 2D 06 68 40 08 24 40 00 00 D3 ... -- CPU_WriteMem(1576 bytes @ 0x20000000)  returns 0x628 (0005ms, 0898ms total)
T1FB0 001:223 JLINK_WriteReg(R0, 0x00000000)  returns 0x00 (0000ms, 0903ms total)
T1FB0 001:223 JLINK_WriteReg(R1, 0x00B71B00)  returns 0x00 (0000ms, 0903ms total)
T1FB0 001:223 JLINK_WriteReg(R2, 0x00000002)  returns 0x00 (0000ms, 0903ms total)
T1FB0 001:223 JLINK_WriteReg(R3, 0x00000000)  returns 0x00 (0000ms, 0903ms total)
T1FB0 001:223 JLINK_WriteReg(R4, 0x00000000)  returns 0x00 (0000ms, 0903ms total)
T1FB0 001:223 JLINK_WriteReg(R5, 0x00000000)  returns 0x00 (0000ms, 0903ms total)
T1FB0 001:223 JLINK_WriteReg(R6, 0x00000000)  returns 0x00 (0000ms, 0903ms total)
T1FB0 001:223 JLINK_WriteReg(R7, 0x00000000)  returns 0x00 (0000ms, 0903ms total)
T1FB0 001:223 JLINK_WriteReg(R8, 0x00000000)  returns 0x00 (0000ms, 0903ms total)
T1FB0 001:223 JLINK_WriteReg(R9, 0x20000620)  returns 0x00 (0000ms, 0903ms total)
T1FB0 001:223 JLINK_WriteReg(R10, 0x00000000)  returns 0x00 (0000ms, 0903ms total)
T1FB0 001:223 JLINK_WriteReg(R11, 0x00000000)  returns 0x00 (0000ms, 0903ms total)
T1FB0 001:223 JLINK_WriteReg(R12, 0x00000000)  returns 0x00 (0000ms, 0903ms total)
T1FB0 001:223 JLINK_WriteReg(R13, 0x20001000)  returns 0x00 (0000ms, 0903ms total)
T1FB0 001:223 JLINK_WriteReg(R14, 0x20000001)  returns 0x00 (0000ms, 0903ms total)
T1FB0 001:223 JLINK_WriteReg(R15, 0x20000038)  returns 0x00 (0000ms, 0903ms total)
T1FB0 001:223 JLINK_WriteReg(XPSR, 0x01000000)  returns 0x00 (0000ms, 0903ms total)
T1FB0 001:223 JLINK_WriteReg(MSP, 0x20001000)  returns 0x00 (0001ms, 0903ms total)
T1FB0 001:224 JLINK_WriteReg(PSP, 0x20001000)  returns 0x00 (0000ms, 0904ms total)
T1FB0 001:224 JLINK_WriteReg(BASEPRI, 0x00000000)  returns 0x00 (0000ms, 0904ms total)
T1FB0 001:224 JLINK_WriteReg(CONTROL, 0x00000000)  returns 0x00 (0000ms, 0904ms total)
T1FB0 001:224 JLINK_WriteReg(FAULTMASK, 0x00000000)  returns 0x00 (0000ms, 0904ms total)
T1FB0 001:224 JLINK_WriteReg(BASEPRI_MAX, 0x00000000)  returns 0x00 (0000ms, 0904ms total)
T1FB0 001:224 JLINK_SetBPEx(Addr = 0x20000000, Type = 0xFFFFFFF2) -- CPU_ReadMem(4 bytes @ 0x20000000) -- CPU_WriteMem(4 bytes @ 0x20000000) -- CPU_ReadMem(4 bytes @ 0x20000000) -- CPU_WriteMem(4 bytes @ 0x20000000) -- CPU_ReadMem(2 bytes @ 0x20000000)  returns 0x00000004 (0002ms, 0904ms total)
T1FB0 001:226 JLINK_Go() -- CPU_WriteMem(2 bytes @ 0x20000000) -- CPU_WriteMem(4 bytes @ 0xE0002008) -- CPU_WriteMem(4 bytes @ 0xE000200C) -- CPU_WriteMem(4 bytes @ 0xE0002010) -- CPU_WriteMem(4 bytes @ 0xE0002014) -- CPU_WriteMem(4 bytes @ 0xE0002018) -- CPU_WriteMem(4 bytes @ 0xE000201C) (0003ms, 0906ms total)
T1FB0 001:229 JLINK_IsHalted()  returns FALSE (0001ms, 0909ms total)
T1FB0 001:280 JLINK_IsHalted() -- CPU_ReadMem(2 bytes @ 0x20000000)  returns TRUE (0002ms, 0909ms total)
T1FB0 001:282 JLINK_ReadReg(R15)  returns 0x20000000 (0000ms, 0909ms total)
T1FB0 001:282 JLINK_ClrBPEx(BPHandle = 0x00000004)  returns 0x00 (0000ms, 0909ms total)
T1FB0 001:282 JLINK_ReadReg(R0)  returns 0x00000000 (0000ms, 0909ms total)
T1FB0 001:283 JLINK_WriteMem(0x20000628, 0x0080 Bytes, ...) -- Data:  28 5C 02 20 D9 00 00 00 E7 00 00 00 09 32 00 00 ... -- CPU_WriteMem(128 bytes @ 0x20000628)  returns 0x80 (0002ms, 0909ms total)
T1FB0 001:285 JLINK_WriteReg(R0, 0x00000000)  returns 0x00 (0000ms, 0911ms total)
T1FB0 001:285 JLINK_WriteReg(R1, 0x00000080)  returns 0x00 (0000ms, 0911ms total)
T1FB0 001:285 JLINK_WriteReg(R2, 0x20000628)  returns 0x00 (0000ms, 0911ms total)
T1FB0 001:285 JLINK_WriteReg(R3, 0x00000000)  returns 0x00 (0000ms, 0911ms total)
T1FB0 001:285 JLINK_WriteReg(R4, 0x00000000)  returns 0x00 (0000ms, 0911ms total)
T1FB0 001:285 JLINK_WriteReg(R5, 0x00000000)  returns 0x00 (0000ms, 0911ms total)
T1FB0 001:285 JLINK_WriteReg(R6, 0x00000000)  returns 0x00 (0000ms, 0911ms total)
T1FB0 001:285 JLINK_WriteReg(R7, 0x00000000)  returns 0x00 (0000ms, 0911ms total)
T1FB0 001:285 JLINK_WriteReg(R8, 0x00000000)  returns 0x00 (0001ms, 0911ms total)
T1FB0 001:286 JLINK_WriteReg(R9, 0x20000620)  returns 0x00 (0000ms, 0912ms total)
T1FB0 001:286 JLINK_WriteReg(R10, 0x00000000)  returns 0x00 (0000ms, 0912ms total)
T1FB0 001:286 JLINK_WriteReg(R11, 0x00000000)  returns 0x00 (0000ms, 0912ms total)
T1FB0 001:286 JLINK_WriteReg(R12, 0x00000000)  returns 0x00 (0000ms, 0912ms total)
T1FB0 001:286 JLINK_WriteReg(R13, 0x20001000)  returns 0x00 (0000ms, 0912ms total)
T1FB0 001:286 JLINK_WriteReg(R14, 0x20000001)  returns 0x00 (0000ms, 0912ms total)
T1FB0 001:286 JLINK_WriteReg(R15, 0x200001C2)  returns 0x00 (0000ms, 0912ms total)
T1FB0 001:286 JLINK_WriteReg(XPSR, 0x01000000)  returns 0x00 (0000ms, 0912ms total)
T1FB0 001:286 JLINK_WriteReg(MSP, 0x20001000)  returns 0x00 (0000ms, 0912ms total)
T1FB0 001:286 JLINK_WriteReg(PSP, 0x20001000)  returns 0x00 (0000ms, 0912ms total)
T1FB0 001:286 JLINK_WriteReg(BASEPRI, 0x00000000)  returns 0x00 (0001ms, 0912ms total)
T1FB0 001:287 JLINK_WriteReg(CONTROL, 0x00000000)  returns 0x00 (0000ms, 0913ms total)
T1FB0 001:287 JLINK_WriteReg(FAULTMASK, 0x00000000)  returns 0x00 (0000ms, 0913ms total)
T1FB0 001:287 JLINK_WriteReg(BASEPRI_MAX, 0x00000000)  returns 0x00 (0000ms, 0913ms total)
T1FB0 001:287 JLINK_SetBPEx(Addr = 0x20000000, Type = 0xFFFFFFF2)  returns 0x00000005 (0000ms, 0913ms total)
T1FB0 001:287 JLINK_Go() -- CPU_WriteMem(4 bytes @ 0xE0002008) -- CPU_WriteMem(4 bytes @ 0xE000200C) -- CPU_WriteMem(4 bytes @ 0xE0002010) -- CPU_WriteMem(4 bytes @ 0xE0002014) -- CPU_WriteMem(4 bytes @ 0xE0002018) -- CPU_WriteMem(4 bytes @ 0xE000201C) (0004ms, 0913ms total)
T1FB0 001:291 JLINK_IsHalted()  returns FALSE (0001ms, 0917ms total)
T1FB0 001:342 JLINK_IsHalted() -- CPU_ReadMem(2 bytes @ 0x20000000)  returns TRUE (0002ms, 0917ms total)
T1FB0 001:344 JLINK_ReadReg(R15)  returns 0x20000000 (0000ms, 0917ms total)
T1FB0 001:344 JLINK_ClrBPEx(BPHandle = 0x00000005)  returns 0x00 (0000ms, 0917ms total)
T1FB0 001:344 JLINK_ReadReg(R0)  returns 0x00000000 (0000ms, 0917ms total)
T1FB0 001:345 JLINK_WriteMem(0x20000628, 0x0080 Bytes, ...) -- Data:  29 02 00 00 00 00 00 00 00 00 00 00 39 02 00 00 ... -- CPU_WriteMem(128 bytes @ 0x20000628)  returns 0x80 (0002ms, 0917ms total)
T1FB0 001:347 JLINK_WriteReg(R0, 0x00000080)  returns 0x00 (0000ms, 0919ms total)
T1FB0 001:347 JLINK_WriteReg(R1, 0x00000080)  returns 0x00 (0000ms, 0919ms total)
T1FB0 001:347 JLINK_WriteReg(R2, 0x20000628)  returns 0x00 (0000ms, 0919ms total)
T1FB0 001:347 JLINK_WriteReg(R3, 0x00000000)  returns 0x00 (0000ms, 0919ms total)
T1FB0 001:347 JLINK_WriteReg(R4, 0x00000000)  returns 0x00 (0000ms, 0919ms total)
T1FB0 001:347 JLINK_WriteReg(R5, 0x00000000)  returns 0x00 (0000ms, 0919ms total)
T1FB0 001:347 JLINK_WriteReg(R6, 0x00000000)  returns 0x00 (0000ms, 0919ms total)
T1FB0 001:347 JLINK_WriteReg(R7, 0x00000000)  returns 0x00 (0000ms, 0919ms total)
T1FB0 001:347 JLINK_WriteReg(R8, 0x00000000)  returns 0x00 (0001ms, 0919ms total)
T1FB0 001:348 JLINK_WriteReg(R9, 0x20000620)  returns 0x00 (0000ms, 0920ms total)
T1FB0 001:348 JLINK_WriteReg(R10, 0x00000000)  returns 0x00 (0000ms, 0920ms total)
T1FB0 001:348 JLINK_WriteReg(R11, 0x00000000)  returns 0x00 (0000ms, 0920ms total)
T1FB0 001:348 JLINK_WriteReg(R12, 0x00000000)  returns 0x00 (0000ms, 0920ms total)
T1FB0 001:348 JLINK_WriteReg(R13, 0x20001000)  returns 0x00 (0000ms, 0920ms total)
T1FB0 001:348 JLINK_WriteReg(R14, 0x20000001)  returns 0x00 (0000ms, 0920ms total)
T1FB0 001:348 JLINK_WriteReg(R15, 0x200001C2)  returns 0x00 (0000ms, 0920ms total)
T1FB0 001:348 JLINK_WriteReg(XPSR, 0x01000000)  returns 0x00 (0000ms, 0920ms total)
T1FB0 001:348 JLINK_WriteReg(MSP, 0x20001000)  returns 0x00 (0000ms, 0920ms total)
T1FB0 001:348 JLINK_WriteReg(PSP, 0x20001000)  returns 0x00 (0000ms, 0920ms total)
T1FB0 001:348 JLINK_WriteReg(BASEPRI, 0x00000000)  returns 0x00 (0001ms, 0920ms total)
T1FB0 001:349 JLINK_WriteReg(CONTROL, 0x00000000)  returns 0x00 (0000ms, 0921ms total)
T1FB0 001:349 JLINK_WriteReg(FAULTMASK, 0x00000000)  returns 0x00 (0000ms, 0921ms total)
T1FB0 001:349 JLINK_WriteReg(BASEPRI_MAX, 0x00000000)  returns 0x00 (0000ms, 0921ms total)
T1FB0 001:349 JLINK_SetBPEx(Addr = 0x20000000, Type = 0xFFFFFFF2)  returns 0x00000006 (0000ms, 0921ms total)
T1FB0 001:349 JLINK_Go() -- CPU_WriteMem(4 bytes @ 0xE0002008) -- CPU_WriteMem(4 bytes @ 0xE000200C) -- CPU_WriteMem(4 bytes @ 0xE0002010) -- CPU_WriteMem(4 bytes @ 0xE0002014) -- CPU_WriteMem(4 bytes @ 0xE0002018) -- CPU_WriteMem(4 bytes @ 0xE000201C) (0005ms, 0921ms total)
T1FB0 001:354 JLINK_IsHalted()  returns FALSE (0001ms, 0926ms total)
T1FB0 001:406 JLINK_IsHalted() -- CPU_ReadMem(2 bytes @ 0x20000000)  returns TRUE (0003ms, 0926ms total)
T1FB0 001:409 JLINK_ReadReg(R15)  returns 0x20000000 (0000ms, 0926ms total)
T1FB0 001:409 JLINK_ClrBPEx(BPHandle = 0x00000006)  returns 0x00 (0000ms, 0926ms total)
T1FB0 001:409 JLINK_ReadReg(R0)  returns 0x00000000 (0000ms, 0926ms total)
T1FB0 001:410 JLINK_WriteMem(0x20000628, 0x0080 Bytes, ...) -- Data:  70 47 00 00 1D 03 00 00 28 50 02 20 28 5C 02 20 ... -- CPU_WriteMem(128 bytes @ 0x20000628)  returns 0x80 (0001ms, 0926ms total)
T1FB0 001:411 JLINK_WriteReg(R0, 0x00000100)  returns 0x00 (0000ms, 0927ms total)
T1FB0 001:411 JLINK_WriteReg(R1, 0x00000080)  returns 0x00 (0000ms, 0927ms total)
T1FB0 001:411 JLINK_WriteReg(R2, 0x20000628)  returns 0x00 (0000ms, 0927ms total)
T1FB0 001:411 JLINK_WriteReg(R3, 0x00000000)  returns 0x00 (0000ms, 0927ms total)
T1FB0 001:411 JLINK_WriteReg(R4, 0x00000000)  returns 0x00 (0000ms, 0927ms total)
T1FB0 001:411 JLINK_WriteReg(R5, 0x00000000)  returns 0x00 (0000ms, 0927ms total)
T1FB0 001:411 JLINK_WriteReg(R6, 0x00000000)  returns 0x00 (0000ms, 0927ms total)
T1FB0 001:411 JLINK_WriteReg(R7, 0x00000000)  returns 0x00 (0001ms, 0927ms total)
T1FB0 001:412 JLINK_WriteReg(R8, 0x00000000)  returns 0x00 (0000ms, 0928ms total)
T1FB0 001:412 JLINK_WriteReg(R9, 0x20000620)  returns 0x00 (0000ms, 0928ms total)
T1FB0 001:412 JLINK_WriteReg(R10, 0x00000000)  returns 0x00 (0000ms, 0928ms total)
T1FB0 001:412 JLINK_WriteReg(R11, 0x00000000)  returns 0x00 (0000ms, 0928ms total)
T1FB0 001:412 JLINK_WriteReg(R12, 0x00000000)  returns 0x00 (0000ms, 0928ms total)
T1FB0 001:412 JLINK_WriteReg(R13, 0x20001000)  returns 0x00 (0001ms, 0928ms total)
T1FB0 001:413 JLINK_WriteReg(R14, 0x20000001)  returns 0x00 (0000ms, 0929ms total)
T1FB0 001:413 JLINK_WriteReg(R15, 0x200001C2)  returns 0x00 (0000ms, 0929ms total)
T1FB0 001:413 JLINK_WriteReg(XPSR, 0x01000000)  returns 0x00 (0000ms, 0929ms total)
T1FB0 001:413 JLINK_WriteReg(MSP, 0x20001000)  returns 0x00 (0000ms, 0929ms total)
T1FB0 001:413 JLINK_WriteReg(PSP, 0x20001000)  returns 0x00 (0000ms, 0929ms total)
T1FB0 001:413 JLINK_WriteReg(BASEPRI, 0x00000000)  returns 0x00 (0000ms, 0929ms total)
T1FB0 001:413 JLINK_WriteReg(CONTROL, 0x00000000)  returns 0x00 (0000ms, 0929ms total)
T1FB0 001:413 JLINK_WriteReg(FAULTMASK, 0x00000000)  returns 0x00 (0001ms, 0929ms total)
T1FB0 001:414 JLINK_WriteReg(BASEPRI_MAX, 0x00000000)  returns 0x00 (0000ms, 0930ms total)
T1FB0 001:414 JLINK_SetBPEx(Addr = 0x20000000, Type = 0xFFFFFFF2)  returns 0x00000007 (0000ms, 0930ms total)
T1FB0 001:414 JLINK_Go() -- CPU_WriteMem(4 bytes @ 0xE0002008) -- CPU_WriteMem(4 bytes @ 0xE000200C) -- CPU_WriteMem(4 bytes @ 0xE0002010) -- CPU_WriteMem(4 bytes @ 0xE0002014) -- CPU_WriteMem(4 bytes @ 0xE0002018) -- CPU_WriteMem(4 bytes @ 0xE000201C) (0005ms, 0930ms total)
T1FB0 001:419 JLINK_IsHalted()  returns FALSE (0000ms, 0935ms total)
T1FB0 001:469 JLINK_IsHalted() -- CPU_ReadMem(2 bytes @ 0x20000000)  returns TRUE (0002ms, 0935ms total)
T1FB0 001:471 JLINK_ReadReg(R15)  returns 0x20000000 (0000ms, 0935ms total)
T1FB0 001:471 JLINK_ClrBPEx(BPHandle = 0x00000007)  returns 0x00 (0000ms, 0935ms total)
T1FB0 001:471 JLINK_ReadReg(R0)  returns 0x00000000 (0000ms, 0935ms total)
T1FB0 001:473 JLINK_WriteMem(0x20000628, 0x0080 Bytes, ...) -- Data:  52 48 00 68 80 47 10 BD 10 B5 51 48 00 68 10 B1 ... -- CPU_WriteMem(128 bytes @ 0x20000628)  returns 0x80 (0001ms, 0935ms total)
T1FB0 001:474 JLINK_WriteReg(R0, 0x00000180)  returns 0x00 (0001ms, 0936ms total)
T1FB0 001:475 JLINK_WriteReg(R1, 0x00000080)  returns 0x00 (0000ms, 0937ms total)
T1FB0 001:475 JLINK_WriteReg(R2, 0x20000628)  returns 0x00 (0000ms, 0937ms total)
T1FB0 001:475 JLINK_WriteReg(R3, 0x00000000)  returns 0x00 (0000ms, 0937ms total)
T1FB0 001:475 JLINK_WriteReg(R4, 0x00000000)  returns 0x00 (0000ms, 0937ms total)
T1FB0 001:475 JLINK_WriteReg(R5, 0x00000000)  returns 0x00 (0000ms, 0937ms total)
T1FB0 001:475 JLINK_WriteReg(R6, 0x00000000)  returns 0x00 (0002ms, 0937ms total)
T1FB0 001:477 JLINK_WriteReg(R7, 0x00000000)  returns 0x00 (0000ms, 0939ms total)
T1FB0 001:477 JLINK_WriteReg(R8, 0x00000000)  returns 0x00 (0000ms, 0939ms total)
T1FB0 001:477 JLINK_WriteReg(R9, 0x20000620)  returns 0x00 (0000ms, 0939ms total)
T1FB0 001:477 JLINK_WriteReg(R10, 0x00000000)  returns 0x00 (0000ms, 0939ms total)
T1FB0 001:477 JLINK_WriteReg(R11, 0x00000000)  returns 0x00 (0000ms, 0939ms total)
T1FB0 001:477 JLINK_WriteReg(R12, 0x00000000)  returns 0x00 (0000ms, 0939ms total)
T1FB0 001:477 JLINK_WriteReg(R13, 0x20001000)  returns 0x00 (0001ms, 0939ms total)
T1FB0 001:478 JLINK_WriteReg(R14, 0x20000001)  returns 0x00 (0000ms, 0940ms total)
T1FB0 001:478 JLINK_WriteReg(R15, 0x200001C2)  returns 0x00 (0000ms, 0940ms total)
T1FB0 001:478 JLINK_WriteReg(XPSR, 0x01000000)  returns 0x00 (0000ms, 0940ms total)
T1FB0 001:478 JLINK_WriteReg(MSP, 0x20001000)  returns 0x00 (0000ms, 0940ms total)
T1FB0 001:478 JLINK_WriteReg(PSP, 0x20001000)  returns 0x00 (0000ms, 0940ms total)
T1FB0 001:478 JLINK_WriteReg(BASEPRI, 0x00000000)  returns 0x00 (0000ms, 0940ms total)
T1FB0 001:478 JLINK_WriteReg(CONTROL, 0x00000000)  returns 0x00 (0000ms, 0940ms total)
T1FB0 001:478 JLINK_WriteReg(FAULTMASK, 0x00000000)  returns 0x00 (0001ms, 0940ms total)
T1FB0 001:479 JLINK_WriteReg(BASEPRI_MAX, 0x00000000)  returns 0x00 (0000ms, 0941ms total)
T1FB0 001:479 JLINK_SetBPEx(Addr = 0x20000000, Type = 0xFFFFFFF2)  returns 0x00000008 (0000ms, 0941ms total)
T1FB0 001:479 JLINK_Go() -- CPU_WriteMem(4 bytes @ 0xE0002008) -- CPU_WriteMem(4 bytes @ 0xE000200C) -- CPU_WriteMem(4 bytes @ 0xE0002010) -- CPU_WriteMem(4 bytes @ 0xE0002014) -- CPU_WriteMem(4 bytes @ 0xE0002018) -- CPU_WriteMem(4 bytes @ 0xE000201C) (0004ms, 0941ms total)
T1FB0 001:483 JLINK_IsHalted()  returns FALSE (0001ms, 0945ms total)
T1FB0 001:534 JLINK_IsHalted() -- CPU_ReadMem(2 bytes @ 0x20000000)  returns TRUE (0003ms, 0945ms total)
T1FB0 001:537 JLINK_ReadReg(R15)  returns 0x20000000 (0000ms, 0945ms total)
T1FB0 001:537 JLINK_ClrBPEx(BPHandle = 0x00000008)  returns 0x00 (0000ms, 0945ms total)
T1FB0 001:537 JLINK_ReadReg(R0)  returns 0x00000000 (0000ms, 0945ms total)
T1FB0 001:539 JLINK_WriteMem(0x20000628, 0x0080 Bytes, ...) -- Data:  3A 48 00 68 80 47 10 BD 10 B5 39 48 00 68 10 B1 ... -- CPU_WriteMem(128 bytes @ 0x20000628)  returns 0x80 (0000ms, 0945ms total)
T1FB0 001:539 JLINK_WriteReg(R0, 0x00000200)  returns 0x00 (0000ms, 0945ms total)
T1FB0 001:539 JLINK_WriteReg(R1, 0x00000080)  returns 0x00 (0000ms, 0945ms total)
T1FB0 001:539 JLINK_WriteReg(R2, 0x20000628)  returns 0x00 (0000ms, 0945ms total)
T1FB0 001:539 JLINK_WriteReg(R3, 0x00000000)  returns 0x00 (0000ms, 0945ms total)
T1FB0 001:539 JLINK_WriteReg(R4, 0x00000000)  returns 0x00 (0000ms, 0945ms total)
T1FB0 001:539 JLINK_WriteReg(R5, 0x00000000)  returns 0x00 (0000ms, 0945ms total)
T1FB0 001:539 JLINK_WriteReg(R6, 0x00000000)  returns 0x00 (0000ms, 0945ms total)
T1FB0 001:539 JLINK_WriteReg(R7, 0x00000000)  returns 0x00 (0001ms, 0945ms total)
T1FB0 001:540 JLINK_WriteReg(R8, 0x00000000)  returns 0x00 (0000ms, 0946ms total)
T1FB0 001:540 JLINK_WriteReg(R9, 0x20000620)  returns 0x00 (0000ms, 0946ms total)
T1FB0 001:540 JLINK_WriteReg(R10, 0x00000000)  returns 0x00 (0000ms, 0946ms total)
T1FB0 001:540 JLINK_WriteReg(R11, 0x00000000)  returns 0x00 (0000ms, 0946ms total)
T1FB0 001:540 JLINK_WriteReg(R12, 0x00000000)  returns 0x00 (0000ms, 0946ms total)
T1FB0 001:540 JLINK_WriteReg(R13, 0x20001000)  returns 0x00 (0000ms, 0946ms total)
T1FB0 001:540 JLINK_WriteReg(R14, 0x20000001)  returns 0x00 (0000ms, 0946ms total)
T1FB0 001:540 JLINK_WriteReg(R15, 0x200001C2)  returns 0x00 (0000ms, 0946ms total)
T1FB0 001:540 JLINK_WriteReg(XPSR, 0x01000000)  returns 0x00 (0000ms, 0946ms total)
T1FB0 001:540 JLINK_WriteReg(MSP, 0x20001000)  returns 0x00 (0000ms, 0946ms total)
T1FB0 001:540 JLINK_WriteReg(PSP, 0x20001000)  returns 0x00 (0001ms, 0946ms total)
T1FB0 001:541 JLINK_WriteReg(BASEPRI, 0x00000000)  returns 0x00 (0000ms, 0947ms total)
T1FB0 001:541 JLINK_WriteReg(CONTROL, 0x00000000)  returns 0x00 (0000ms, 0947ms total)
T1FB0 001:541 JLINK_WriteReg(FAULTMASK, 0x00000000)  returns 0x00 (0000ms, 0947ms total)
T1FB0 001:541 JLINK_WriteReg(BASEPRI_MAX, 0x00000000)  returns 0x00 (0000ms, 0947ms total)
T1FB0 001:541 JLINK_SetBPEx(Addr = 0x20000000, Type = 0xFFFFFFF2)  returns 0x00000009 (0000ms, 0947ms total)
T1FB0 001:541 JLINK_Go() -- CPU_WriteMem(4 bytes @ 0xE0002008) -- CPU_WriteMem(4 bytes @ 0xE000200C) -- CPU_WriteMem(4 bytes @ 0xE0002010) -- CPU_WriteMem(4 bytes @ 0xE0002014) -- CPU_WriteMem(4 bytes @ 0xE0002018) -- CPU_WriteMem(4 bytes @ 0xE000201C) (0005ms, 0947ms total)
T1FB0 001:546 JLINK_IsHalted()  returns FALSE (0001ms, 0952ms total)
T1FB0 001:597 JLINK_IsHalted() -- CPU_ReadMem(2 bytes @ 0x20000000)  returns TRUE (0002ms, 0952ms total)
T1FB0 001:599 JLINK_ReadReg(R15)  returns 0x20000000 (0000ms, 0952ms total)
T1FB0 001:599 JLINK_ClrBPEx(BPHandle = 0x00000009)  returns 0x00 (0000ms, 0952ms total)
T1FB0 001:599 JLINK_ReadReg(R0)  returns 0x00000000 (0000ms, 0952ms total)
T1FB0 001:602 JLINK_WriteMem(0x20000628, 0x0080 Bytes, ...) -- Data:  80 47 10 BD 10 B5 22 48 00 68 10 B1 20 48 00 68 ... -- CPU_WriteMem(128 bytes @ 0x20000628)  returns 0x80 (0001ms, 0952ms total)
T1FB0 001:604 JLINK_WriteReg(R0, 0x00000280)  returns 0x00 (0000ms, 0953ms total)
T1FB0 001:604 JLINK_WriteReg(R1, 0x00000080)  returns 0x00 (0000ms, 0953ms total)
T1FB0 001:604 JLINK_WriteReg(R2, 0x20000628)  returns 0x00 (0000ms, 0953ms total)
T1FB0 001:604 JLINK_WriteReg(R3, 0x00000000)  returns 0x00 (0000ms, 0953ms total)
T1FB0 001:604 JLINK_WriteReg(R4, 0x00000000)  returns 0x00 (0000ms, 0953ms total)
T1FB0 001:604 JLINK_WriteReg(R5, 0x00000000)  returns 0x00 (0000ms, 0953ms total)
T1FB0 001:604 JLINK_WriteReg(R6, 0x00000000)  returns 0x00 (0000ms, 0953ms total)
T1FB0 001:604 JLINK_WriteReg(R7, 0x00000000)  returns 0x00 (0000ms, 0953ms total)
T1FB0 001:604 JLINK_WriteReg(R8, 0x00000000)  returns 0x00 (0000ms, 0953ms total)
T1FB0 001:604 JLINK_WriteReg(R9, 0x20000620)  returns 0x00 (0001ms, 0953ms total)
T1FB0 001:605 JLINK_WriteReg(R10, 0x00000000)  returns 0x00 (0000ms, 0954ms total)
T1FB0 001:605 JLINK_WriteReg(R11, 0x00000000)  returns 0x00 (0000ms, 0954ms total)
T1FB0 001:605 JLINK_WriteReg(R12, 0x00000000)  returns 0x00 (0000ms, 0954ms total)
T1FB0 001:605 JLINK_WriteReg(R13, 0x20001000)  returns 0x00 (0000ms, 0954ms total)
T1FB0 001:605 JLINK_WriteReg(R14, 0x20000001)  returns 0x00 (0000ms, 0954ms total)
T1FB0 001:605 JLINK_WriteReg(R15, 0x200001C2)  returns 0x00 (0000ms, 0954ms total)
T1FB0 001:605 JLINK_WriteReg(XPSR, 0x01000000)  returns 0x00 (0000ms, 0954ms total)
T1FB0 001:605 JLINK_WriteReg(MSP, 0x20001000)  returns 0x00 (0000ms, 0954ms total)
T1FB0 001:605 JLINK_WriteReg(PSP, 0x20001000)  returns 0x00 (0000ms, 0954ms total)
T1FB0 001:605 JLINK_WriteReg(BASEPRI, 0x00000000)  returns 0x00 (0000ms, 0954ms total)
T1FB0 001:605 JLINK_WriteReg(CONTROL, 0x00000000)  returns 0x00 (0001ms, 0954ms total)
T1FB0 001:606 JLINK_WriteReg(FAULTMASK, 0x00000000)  returns 0x00 (0000ms, 0955ms total)
T1FB0 001:606 JLINK_WriteReg(BASEPRI_MAX, 0x00000000)  returns 0x00 (0000ms, 0955ms total)
T1FB0 001:606 JLINK_SetBPEx(Addr = 0x20000000, Type = 0xFFFFFFF2)  returns 0x0000000A (0000ms, 0955ms total)
T1FB0 001:606 JLINK_Go() -- CPU_WriteMem(4 bytes @ 0xE0002008) -- CPU_WriteMem(4 bytes @ 0xE000200C) -- CPU_WriteMem(4 bytes @ 0xE0002010) -- CPU_WriteMem(4 bytes @ 0xE0002014) -- CPU_WriteMem(4 bytes @ 0xE0002018) -- CPU_WriteMem(4 bytes @ 0xE000201C) (0005ms, 0955ms total)
T1FB0 001:611 JLINK_IsHalted()  returns FALSE (0000ms, 0960ms total)
T1FB0 001:661 JLINK_IsHalted() -- CPU_ReadMem(2 bytes @ 0x20000000)  returns TRUE (0003ms, 0960ms total)
T1FB0 001:664 JLINK_ReadReg(R15)  returns 0x20000000 (0000ms, 0960ms total)
T1FB0 001:664 JLINK_ClrBPEx(BPHandle = 0x0000000A)  returns 0x00 (0000ms, 0960ms total)
T1FB0 001:664 JLINK_ReadReg(R0)  returns 0x00000000 (0000ms, 0960ms total)
T1FB0 001:666 JLINK_WriteMem(0x20000628, 0x0080 Bytes, ...) -- Data:  50 00 01 20 54 00 01 20 58 00 01 20 5C 00 01 20 ... -- CPU_WriteMem(128 bytes @ 0x20000628)  returns 0x80 (0001ms, 0960ms total)
T1FB0 001:667 JLINK_WriteReg(R0, 0x00000300)  returns 0x00 (0000ms, 0961ms total)
T1FB0 001:667 JLINK_WriteReg(R1, 0x00000080)  returns 0x00 (0000ms, 0961ms total)
T1FB0 001:667 JLINK_WriteReg(R2, 0x20000628)  returns 0x00 (0000ms, 0961ms total)
T1FB0 001:667 JLINK_WriteReg(R3, 0x00000000)  returns 0x00 (0000ms, 0961ms total)
T1FB0 001:667 JLINK_WriteReg(R4, 0x00000000)  returns 0x00 (0000ms, 0961ms total)
T1FB0 001:667 JLINK_WriteReg(R5, 0x00000000)  returns 0x00 (0000ms, 0961ms total)
T1FB0 001:667 JLINK_WriteReg(R6, 0x00000000)  returns 0x00 (0000ms, 0961ms total)
T1FB0 001:667 JLINK_WriteReg(R7, 0x00000000)  returns 0x00 (0000ms, 0961ms total)
T1FB0 001:667 JLINK_WriteReg(R8, 0x00000000)  returns 0x00 (0000ms, 0961ms total)
T1FB0 001:667 JLINK_WriteReg(R9, 0x20000620)  returns 0x00 (0001ms, 0961ms total)
T1FB0 001:668 JLINK_WriteReg(R10, 0x00000000)  returns 0x00 (0000ms, 0962ms total)
T1FB0 001:668 JLINK_WriteReg(R11, 0x00000000)  returns 0x00 (0000ms, 0962ms total)
T1FB0 001:668 JLINK_WriteReg(R12, 0x00000000)  returns 0x00 (0000ms, 0962ms total)
T1FB0 001:668 JLINK_WriteReg(R13, 0x20001000)  returns 0x00 (0000ms, 0962ms total)
T1FB0 001:668 JLINK_WriteReg(R14, 0x20000001)  returns 0x00 (0000ms, 0962ms total)
T1FB0 001:668 JLINK_WriteReg(R15, 0x200001C2)  returns 0x00 (0000ms, 0962ms total)
T1FB0 001:668 JLINK_WriteReg(XPSR, 0x01000000)  returns 0x00 (0000ms, 0962ms total)
T1FB0 001:668 JLINK_WriteReg(MSP, 0x20001000)  returns 0x00 (0000ms, 0962ms total)
T1FB0 001:668 JLINK_WriteReg(PSP, 0x20001000)  returns 0x00 (0000ms, 0962ms total)
T1FB0 001:668 JLINK_WriteReg(BASEPRI, 0x00000000)  returns 0x00 (0000ms, 0962ms total)
T1FB0 001:668 JLINK_WriteReg(CONTROL, 0x00000000)  returns 0x00 (0001ms, 0962ms total)
T1FB0 001:669 JLINK_WriteReg(FAULTMASK, 0x00000000)  returns 0x00 (0000ms, 0963ms total)
T1FB0 001:669 JLINK_WriteReg(BASEPRI_MAX, 0x00000000)  returns 0x00 (0000ms, 0963ms total)
T1FB0 001:669 JLINK_SetBPEx(Addr = 0x20000000, Type = 0xFFFFFFF2)  returns 0x0000000B (0000ms, 0963ms total)
T1FB0 001:669 JLINK_Go() -- CPU_WriteMem(4 bytes @ 0xE0002008) -- CPU_WriteMem(4 bytes @ 0xE000200C) -- CPU_WriteMem(4 bytes @ 0xE0002010) -- CPU_WriteMem(4 bytes @ 0xE0002014) -- CPU_WriteMem(4 bytes @ 0xE0002018) -- CPU_WriteMem(4 bytes @ 0xE000201C) (0005ms, 0963ms total)
T1FB0 001:674 JLINK_IsHalted()  returns FALSE (0000ms, 0968ms total)
T1FB0 001:725 JLINK_IsHalted() -- CPU_ReadMem(2 bytes @ 0x20000000)  returns TRUE (0002ms, 0968ms total)
T1FB0 001:727 JLINK_ReadReg(R15)  returns 0x20000000 (0000ms, 0968ms total)
T1FB0 001:727 JLINK_ClrBPEx(BPHandle = 0x0000000B)  returns 0x00 (0000ms, 0968ms total)
T1FB0 001:727 JLINK_ReadReg(R0)  returns 0x00000000 (0000ms, 0968ms total)
T1FB0 001:728 JLINK_WriteMem(0x20000628, 0x0080 Bytes, ...) -- Data:  01 6B F9 D1 13 F0 08 0F 1E BF 10 F8 01 4B AD 1C ... -- CPU_WriteMem(128 bytes @ 0x20000628)  returns 0x80 (0002ms, 0968ms total)
T1FB0 001:730 JLINK_WriteReg(R0, 0x00000380)  returns 0x00 (0000ms, 0970ms total)
T1FB0 001:730 JLINK_WriteReg(R1, 0x00000080)  returns 0x00 (0000ms, 0970ms total)
T1FB0 001:730 JLINK_WriteReg(R2, 0x20000628)  returns 0x00 (0000ms, 0970ms total)
T1FB0 001:730 JLINK_WriteReg(R3, 0x00000000)  returns 0x00 (0000ms, 0970ms total)
T1FB0 001:730 JLINK_WriteReg(R4, 0x00000000)  returns 0x00 (0000ms, 0970ms total)
T1FB0 001:730 JLINK_WriteReg(R5, 0x00000000)  returns 0x00 (0000ms, 0970ms total)
T1FB0 001:730 JLINK_WriteReg(R6, 0x00000000)  returns 0x00 (0000ms, 0970ms total)
T1FB0 001:730 JLINK_WriteReg(R7, 0x00000000)  returns 0x00 (0000ms, 0970ms total)
T1FB0 001:730 JLINK_WriteReg(R8, 0x00000000)  returns 0x00 (0001ms, 0970ms total)
T1FB0 001:731 JLINK_WriteReg(R9, 0x20000620)  returns 0x00 (0000ms, 0971ms total)
T1FB0 001:731 JLINK_WriteReg(R10, 0x00000000)  returns 0x00 (0000ms, 0971ms total)
T1FB0 001:731 JLINK_WriteReg(R11, 0x00000000)  returns 0x00 (0000ms, 0971ms total)
T1FB0 001:731 JLINK_WriteReg(R12, 0x00000000)  returns 0x00 (0000ms, 0971ms total)
T1FB0 001:731 JLINK_WriteReg(R13, 0x20001000)  returns 0x00 (0000ms, 0971ms total)
T1FB0 001:731 JLINK_WriteReg(R14, 0x20000001)  returns 0x00 (0000ms, 0971ms total)
T1FB0 001:731 JLINK_WriteReg(R15, 0x200001C2)  returns 0x00 (0000ms, 0971ms total)
T1FB0 001:731 JLINK_WriteReg(XPSR, 0x01000000)  returns 0x00 (0000ms, 0971ms total)
T1FB0 001:731 JLINK_WriteReg(MSP, 0x20001000)  returns 0x00 (0000ms, 0971ms total)
T1FB0 001:731 JLINK_WriteReg(PSP, 0x20001000)  returns 0x00 (0000ms, 0971ms total)
T1FB0 001:732 JLINK_WriteReg(BASEPRI, 0x00000000)  returns 0x00 (0000ms, 0972ms total)
T1FB0 001:732 JLINK_WriteReg(CONTROL, 0x00000000)  returns 0x00 (0000ms, 0972ms total)
T1FB0 001:732 JLINK_WriteReg(FAULTMASK, 0x00000000)  returns 0x00 (0000ms, 0972ms total)
T1FB0 001:732 JLINK_WriteReg(BASEPRI_MAX, 0x00000000)  returns 0x00 (0000ms, 0972ms total)
T1FB0 001:732 JLINK_SetBPEx(Addr = 0x20000000, Type = 0xFFFFFFF2)  returns 0x0000000C (0000ms, 0972ms total)
T1FB0 001:732 JLINK_Go() -- CPU_WriteMem(4 bytes @ 0xE0002008) -- CPU_WriteMem(4 bytes @ 0xE000200C) -- CPU_WriteMem(4 bytes @ 0xE0002010) -- CPU_WriteMem(4 bytes @ 0xE0002014) -- CPU_WriteMem(4 bytes @ 0xE0002018) -- CPU_WriteMem(4 bytes @ 0xE000201C) (0004ms, 0972ms total)
T1FB0 001:736 JLINK_IsHalted()  returns FALSE (0001ms, 0976ms total)
T1FB0 001:787 JLINK_IsHalted() -- CPU_ReadMem(2 bytes @ 0x20000000)  returns TRUE (0003ms, 0976ms total)
T1FB0 001:790 JLINK_ReadReg(R15)  returns 0x20000000 (0000ms, 0976ms total)
T1FB0 001:790 JLINK_ClrBPEx(BPHandle = 0x0000000C)  returns 0x00 (0000ms, 0976ms total)
T1FB0 001:790 JLINK_ReadReg(R0)  returns 0x00000000 (0000ms, 0976ms total)
T1FB0 001:791 JLINK_WriteMem(0x20000628, 0x0080 Bytes, ...) -- Data:  70 B5 06 46 00 F0 3C F9 05 68 06 F1 0B 00 20 F0 ... -- CPU_WriteMem(128 bytes @ 0x20000628)  returns 0x80 (0002ms, 0976ms total)
T1FB0 001:793 JLINK_WriteReg(R0, 0x00000400)  returns 0x00 (0000ms, 0978ms total)
T1FB0 001:793 JLINK_WriteReg(R1, 0x00000080)  returns 0x00 (0000ms, 0978ms total)
T1FB0 001:793 JLINK_WriteReg(R2, 0x20000628)  returns 0x00 (0000ms, 0978ms total)
T1FB0 001:793 JLINK_WriteReg(R3, 0x00000000)  returns 0x00 (0000ms, 0978ms total)
T1FB0 001:793 JLINK_WriteReg(R4, 0x00000000)  returns 0x00 (0000ms, 0978ms total)
T1FB0 001:793 JLINK_WriteReg(R5, 0x00000000)  returns 0x00 (0000ms, 0978ms total)
T1FB0 001:793 JLINK_WriteReg(R6, 0x00000000)  returns 0x00 (0000ms, 0978ms total)
T1FB0 001:793 JLINK_WriteReg(R7, 0x00000000)  returns 0x00 (0000ms, 0978ms total)
T1FB0 001:793 JLINK_WriteReg(R8, 0x00000000)  returns 0x00 (0001ms, 0978ms total)
T1FB0 001:794 JLINK_WriteReg(R9, 0x20000620)  returns 0x00 (0000ms, 0979ms total)
T1FB0 001:794 JLINK_WriteReg(R10, 0x00000000)  returns 0x00 (0000ms, 0979ms total)
T1FB0 001:794 JLINK_WriteReg(R11, 0x00000000)  returns 0x00 (0000ms, 0979ms total)
T1FB0 001:794 JLINK_WriteReg(R12, 0x00000000)  returns 0x00 (0000ms, 0979ms total)
T1FB0 001:794 JLINK_WriteReg(R13, 0x20001000)  returns 0x00 (0000ms, 0979ms total)
T1FB0 001:794 JLINK_WriteReg(R14, 0x20000001)  returns 0x00 (0000ms, 0979ms total)
T1FB0 001:794 JLINK_WriteReg(R15, 0x200001C2)  returns 0x00 (0000ms, 0979ms total)
T1FB0 001:794 JLINK_WriteReg(XPSR, 0x01000000)  returns 0x00 (0000ms, 0979ms total)
T1FB0 001:794 JLINK_WriteReg(MSP, 0x20001000)  returns 0x00 (0000ms, 0979ms total)
T1FB0 001:794 JLINK_WriteReg(PSP, 0x20001000)  returns 0x00 (0000ms, 0979ms total)
T1FB0 001:794 JLINK_WriteReg(BASEPRI, 0x00000000)  returns 0x00 (0001ms, 0979ms total)
T1FB0 001:795 JLINK_WriteReg(CONTROL, 0x00000000)  returns 0x00 (0000ms, 0980ms total)
T1FB0 001:795 JLINK_WriteReg(FAULTMASK, 0x00000000)  returns 0x00 (0000ms, 0980ms total)
T1FB0 001:795 JLINK_WriteReg(BASEPRI_MAX, 0x00000000)  returns 0x00 (0000ms, 0980ms total)
T1FB0 001:795 JLINK_SetBPEx(Addr = 0x20000000, Type = 0xFFFFFFF2)  returns 0x0000000D (0000ms, 0980ms total)
T1FB0 001:795 JLINK_Go() -- CPU_WriteMem(4 bytes @ 0xE0002008) -- CPU_WriteMem(4 bytes @ 0xE000200C) -- CPU_WriteMem(4 bytes @ 0xE0002010) -- CPU_WriteMem(4 bytes @ 0xE0002014) -- CPU_WriteMem(4 bytes @ 0xE0002018) -- CPU_WriteMem(4 bytes @ 0xE000201C) (0004ms, 0980ms total)
T1FB0 001:799 JLINK_IsHalted()  returns FALSE (0000ms, 0984ms total)
T1FB0 001:851 JLINK_IsHalted() -- CPU_ReadMem(2 bytes @ 0x20000000)  returns TRUE (0003ms, 0984ms total)
T1FB0 001:854 JLINK_ReadReg(R15)  returns 0x20000000 (0000ms, 0984ms total)
T1FB0 001:854 JLINK_ClrBPEx(BPHandle = 0x0000000D)  returns 0x00 (0000ms, 0984ms total)
T1FB0 001:854 JLINK_ReadReg(R0)  returns 0x00000000 (0000ms, 0984ms total)
T1FB0 001:855 JLINK_WriteMem(0x20000628, 0x0080 Bytes, ...) -- Data:  12 BF 16 43 B2 FA 82 F5 02 FA 05 F4 C5 F1 20 05 ... -- CPU_WriteMem(128 bytes @ 0x20000628)  returns 0x80 (0002ms, 0984ms total)
T1FB0 001:857 JLINK_WriteReg(R0, 0x00000480)  returns 0x00 (0000ms, 0986ms total)
T1FB0 001:857 JLINK_WriteReg(R1, 0x00000080)  returns 0x00 (0000ms, 0986ms total)
T1FB0 001:857 JLINK_WriteReg(R2, 0x20000628)  returns 0x00 (0000ms, 0986ms total)
T1FB0 001:857 JLINK_WriteReg(R3, 0x00000000)  returns 0x00 (0000ms, 0986ms total)
T1FB0 001:857 JLINK_WriteReg(R4, 0x00000000)  returns 0x00 (0000ms, 0986ms total)
T1FB0 001:857 JLINK_WriteReg(R5, 0x00000000)  returns 0x00 (0000ms, 0986ms total)
T1FB0 001:857 JLINK_WriteReg(R6, 0x00000000)  returns 0x00 (0000ms, 0986ms total)
T1FB0 001:857 JLINK_WriteReg(R7, 0x00000000)  returns 0x00 (0000ms, 0986ms total)
T1FB0 001:858 JLINK_WriteReg(R8, 0x00000000)  returns 0x00 (0000ms, 0987ms total)
T1FB0 001:858 JLINK_WriteReg(R9, 0x20000620)  returns 0x00 (0000ms, 0987ms total)
T1FB0 001:858 JLINK_WriteReg(R10, 0x00000000)  returns 0x00 (0000ms, 0987ms total)
T1FB0 001:858 JLINK_WriteReg(R11, 0x00000000)  returns 0x00 (0000ms, 0987ms total)
T1FB0 001:858 JLINK_WriteReg(R12, 0x00000000)  returns 0x00 (0000ms, 0987ms total)
T1FB0 001:858 JLINK_WriteReg(R13, 0x20001000)  returns 0x00 (0000ms, 0987ms total)
T1FB0 001:858 JLINK_WriteReg(R14, 0x20000001)  returns 0x00 (0000ms, 0987ms total)
T1FB0 001:858 JLINK_WriteReg(R15, 0x200001C2)  returns 0x00 (0000ms, 0987ms total)
T1FB0 001:858 JLINK_WriteReg(XPSR, 0x01000000)  returns 0x00 (0000ms, 0987ms total)
T1FB0 001:858 JLINK_WriteReg(MSP, 0x20001000)  returns 0x00 (0000ms, 0987ms total)
T1FB0 001:858 JLINK_WriteReg(PSP, 0x20001000)  returns 0x00 (0000ms, 0987ms total)
T1FB0 001:858 JLINK_WriteReg(BASEPRI, 0x00000000)  returns 0x00 (0001ms, 0987ms total)
T1FB0 001:859 JLINK_WriteReg(CONTROL, 0x00000000)  returns 0x00 (0000ms, 0988ms total)
T1FB0 001:859 JLINK_WriteReg(FAULTMASK, 0x00000000)  returns 0x00 (0000ms, 0988ms total)
T1FB0 001:859 JLINK_WriteReg(BASEPRI_MAX, 0x00000000)  returns 0x00 (0000ms, 0988ms total)
T1FB0 001:859 JLINK_SetBPEx(Addr = 0x20000000, Type = 0xFFFFFFF2)  returns 0x0000000E (0000ms, 0988ms total)
T1FB0 001:859 JLINK_Go() -- CPU_WriteMem(4 bytes @ 0xE0002008) -- CPU_WriteMem(4 bytes @ 0xE000200C) -- CPU_WriteMem(4 bytes @ 0xE0002010) -- CPU_WriteMem(4 bytes @ 0xE0002014) -- CPU_WriteMem(4 bytes @ 0xE0002018) -- CPU_WriteMem(4 bytes @ 0xE000201C) (0004ms, 0988ms total)
T1FB0 001:863 JLINK_IsHalted()  returns FALSE (0001ms, 0992ms total)
T1FB0 001:914 JLINK_IsHalted() -- CPU_ReadMem(2 bytes @ 0x20000000)  returns TRUE (0003ms, 0992ms total)
T1FB0 001:917 JLINK_ReadReg(R15)  returns 0x20000000 (0000ms, 0992ms total)
T1FB0 001:917 JLINK_ClrBPEx(BPHandle = 0x0000000E)  returns 0x00 (0000ms, 0992ms total)
T1FB0 001:917 JLINK_ReadReg(R0)  returns 0x00000000 (0000ms, 0992ms total)
T1FB0 001:918 JLINK_WriteMem(0x20000628, 0x0080 Bytes, ...) -- Data:  5E 46 4F F0 00 0B 5B EA 06 0C 08 BF 4F F0 01 0B ... -- CPU_WriteMem(128 bytes @ 0x20000628)  returns 0x80 (0002ms, 0992ms total)
T1FB0 001:920 JLINK_WriteReg(R0, 0x00000500)  returns 0x00 (0000ms, 0994ms total)
T1FB0 001:920 JLINK_WriteReg(R1, 0x00000080)  returns 0x00 (0000ms, 0994ms total)
T1FB0 001:920 JLINK_WriteReg(R2, 0x20000628)  returns 0x00 (0000ms, 0994ms total)
T1FB0 001:920 JLINK_WriteReg(R3, 0x00000000)  returns 0x00 (0000ms, 0994ms total)
T1FB0 001:920 JLINK_WriteReg(R4, 0x00000000)  returns 0x00 (0000ms, 0994ms total)
T1FB0 001:920 JLINK_WriteReg(R5, 0x00000000)  returns 0x00 (0000ms, 0994ms total)
T1FB0 001:920 JLINK_WriteReg(R6, 0x00000000)  returns 0x00 (0001ms, 0994ms total)
T1FB0 001:921 JLINK_WriteReg(R7, 0x00000000)  returns 0x00 (0000ms, 0995ms total)
T1FB0 001:921 JLINK_WriteReg(R8, 0x00000000)  returns 0x00 (0000ms, 0995ms total)
T1FB0 001:921 JLINK_WriteReg(R9, 0x20000620)  returns 0x00 (0000ms, 0995ms total)
T1FB0 001:921 JLINK_WriteReg(R10, 0x00000000)  returns 0x00 (0000ms, 0995ms total)
T1FB0 001:921 JLINK_WriteReg(R11, 0x00000000)  returns 0x00 (0000ms, 0995ms total)
T1FB0 001:921 JLINK_WriteReg(R12, 0x00000000)  returns 0x00 (0000ms, 0995ms total)
T1FB0 001:921 JLINK_WriteReg(R13, 0x20001000)  returns 0x00 (0001ms, 0995ms total)
T1FB0 001:922 JLINK_WriteReg(R14, 0x20000001)  returns 0x00 (0000ms, 0996ms total)
T1FB0 001:922 JLINK_WriteReg(R15, 0x200001C2)  returns 0x00 (0000ms, 0996ms total)
T1FB0 001:922 JLINK_WriteReg(XPSR, 0x01000000)  returns 0x00 (0000ms, 0996ms total)
T1FB0 001:922 JLINK_WriteReg(MSP, 0x20001000)  returns 0x00 (0000ms, 0996ms total)
T1FB0 001:922 JLINK_WriteReg(PSP, 0x20001000)  returns 0x00 (0000ms, 0996ms total)
T1FB0 001:922 JLINK_WriteReg(BASEPRI, 0x00000000)  returns 0x00 (0000ms, 0996ms total)
T1FB0 001:922 JLINK_WriteReg(CONTROL, 0x00000000)  returns 0x00 (0000ms, 0996ms total)
T1FB0 001:922 JLINK_WriteReg(FAULTMASK, 0x00000000)  returns 0x00 (0000ms, 0996ms total)
